!    11/15/2024   9:16:45 AM 
! Ref Plane: 0.000 mm
# MHZ S MA R  50
!
1500.0000     0.93955       35.90         7.912E-1      -121.98       1.107E-1      151.00        0.36861       86.49          
1500.7500     0.9394        36.04         6.736E-1      -120.90       7.691E-2      132.77        0.36784       83.76          
1501.5000     0.94401       36.14         7.996E-1      -130.55       3.04E-2       -112.94       0.42939       85.66          
1502.2500     0.94587       36.08         7.801E-1      -123.52       5.847E-2      -105.83       0.37997       80.09          
1503.0000     0.93927       35.80         7.477E-1      -131.49       6.871E-2      141.44        0.38922       83.45          
1503.7500     0.94367       35.85         7.193E-1      -127.00       3.671E-2      -139.55       0.38593       78.45          
1504.5000     0.94326       36.15         8.62E-1       -128.41       6.469E-2      -17.33        0.38076       97.00          
1505.2500     0.94199       35.75         6.859E-1      -130.55       9.624E-3      166.23        0.41499       90.16          
1506.0000     0.9362        35.79         7.495E-1      -126.80       8.893E-2      69.73         0.36195       82.87          
1506.7500     0.93683       35.70         8.897E-1      -133.99       6.753E-2      77.84         0.33893       72.47          
1507.5000     0.9452        35.97         8.608E-1      -130.21       1.034E-1      -23.62        0.36415       85.09          
1508.2500     0.95222       35.36         6.788E-1      -129.54       1.659E-1      -102.68       0.36351       83.92          
1509.0000     0.93792       35.41         6.294E-1      -122.02       8.374E-2      72.53         0.36832       84.51          
1509.7500     0.94384       35.64         6.47E-1       -123.97       9.81E-2       -20.01        0.27099       75.91          
1510.5000     0.95038       35.13         7.955E-1      -131.19       1.09E-1       -98.69        0.40104       81.80          
1511.2500     0.94563       35.76         7.168E-1      -128.93       1.663E-1      -16.21        0.2778        83.36          
1512.0000     0.93464       35.12         6.81E-1       -127.87       1.355E-1      78.30         0.23997       63.69          
1512.7500     0.93466       35.07         7.162E-1      -131.85       1.321E-1      78.52         0.24685       71.29          
1513.5000     0.9438        35.03         7.613E-1      -136.37       3.488E-2      -4.28         0.26592       73.63          
1514.2500     0.94376       34.26         5.916E-1      -125.05       1.623E-1      175.76        0.2526        82.40          
1515.0000     0.94062       34.00         7.227E-1      -143.06       1.845E-1      177.08        0.30223       59.80          
1515.7500     0.94538       34.03         7.932E-1      -117.72       1.355E-1      176.38        0.19786       62.77          
1516.5000     0.94418       34.22         6.631E-1      -130.07       8.62E-2       -177.69       0.24818       70.56          
1517.2500     0.94508       34.42         7.434E-1      -146.37       1.706E-2      -102.62       0.3167        70.06          
1518.0000     0.94483       34.19         7.656E-1      -122.80       3.87E-2       -177.34       0.1305        101.71         
1518.7500     0.95058       33.53         7.855E-1      -119.07       1.903E-1      -165.37       0.2731        79.41          
1519.5000     0.95905       34.16         7.512E-1      -138.01       2.054E-1      -83.41        0.2223        55.80          
1520.2500     0.9479        35.18         7.524E-1      -133.41       2.597E-1      -4.94         0.18601       66.20          
1521.0000     0.96017       32.62         7.529E-1      -124.13       3.939E-1      -153.38       0.27092       65.14          
1521.7500     0.94932       33.28         7.68E-1       -121.83       1.552E-1      -166.72       0.10647       70.23          
1522.5000     0.94442       33.28         8.13E-1       -152.75       1.188E-1      -163.92       0.21923       54.81          
1523.2500     0.93785       33.61         8.073E-1      -132.56       1.084E-1      106.21        0.18239       41.37          
1524.0000     0.94471       34.26         8.109E-1      -131.96       1.382E-1      10.55         0.0711        81.07          
1524.7500     0.94478       34.55         6.879E-1      -134.59       2.589E-1      11.33         0.11264       58.24          
1525.5000     0.94931       33.47         7.732E-1      -135.02       4.133E-2      -76.38        0.15757       40.39          
1526.2500     0.94844       33.09         8.358E-1      -131.39       5.801E-2      -151.50       0.1572        49.15          
1527.0000     0.94204       33.08         9.929E-1      -124.18       5.624E-2      116.60        0.14229       57.02          
1527.7500     0.94901       32.85         6.883E-1      -132.61       8.365E-2      -152.37       0.11396       64.40          
1528.5000     0.94944       32.67         7.651E-1      -137.62       9.773E-2      -149.44       0.20713       16.00          
1529.2500     0.95447       32.29         7.771E-1      -137.03       1.828E-1      -137.42       0.11992       34.44          
1530.0000     0.94423       33.61         7.125E-1      -140.59       1.834E-1      26.70         0.13098       13.88          
1530.7500     0.952         32.60         7.752E-1      -130.19       7.707E-2      -116.60       0.13593       28.09          
1531.5000     0.94256       33.27         9.96E-1       -149.80       1.11E-1       49.42         0.13781       -20.79         
1532.2500     0.9465        32.51         6.607E-1      -125.46       2.554E-2      138.25        0.14122       27.97          
1533.0000     0.94616       32.40         7.89E-1       -132.60       2.703E-2      144.67        0.14842       -29.26         
1533.7500     0.94581       32.50         6.723E-1      -137.21       3.848E-2      61.16         0.08805       -7.29          
1534.5000     0.94868       32.28         7.194E-1      -129.50       1.702E-2      -114.06       0.27037       -15.74         
1535.2500     0.93719       31.65         7.436E-1      -135.81       1.948E-1      139.79        0.19329       -10.46         
1536.0000     0.94764       32.11         8.164E-1      -116.30       3.974E-3      124.84        0.16682       -42.31         
1536.7500     0.94754       31.94         7.185E-1      -148.80       2.376E-2      -175.94       0.29322       -21.52         
1537.5000     0.95371       32.27         7.268E-1      -137.96       1.085E-1      -35.26        0.10881       -10.97         
1538.2500     0.94448       31.72         6.869E-1      -152.72       6.178E-2      149.17        0.23278       -25.18         
1539.0000     0.95462       31.81         7.513E-1      -139.65       8.872E-2      -70.87        0.13279       -17.42         
1539.7500     0.93886       31.21         6.798E-1      -138.00       1.805E-1      142.11        0.22923       -28.51         
1540.5000     0.95275       31.69         7.83E-1       -150.54       6.272E-2      -44.02        0.16176       -46.75         
1541.2500     0.94697       31.60         7.221E-1      -145.21       2.785E-2      54.41         0.18039       -46.50         
1542.0000     0.9493        31.22         7.329E-1      -139.81       4.304E-2      -145.36       0.27914       -37.62         
1542.7500     0.94862       31.26         6.646E-1      -125.26       1.802E-2      -158.59       0.30086       -73.01         
1543.5000     0.95074       31.83         5.576E-1      -133.77       1.829E-1      -4.10         0.23735       -33.16         
1544.2500     0.95942       30.62         7.429E-1      -144.81       1.886E-1      -109.31       0.29345       -14.86         
1545.0000     0.95937       31.12         7.153E-1      -124.57       1.569E-1      -84.45        0.23779       -58.93         
1545.7500     0.97186       31.73         8.369E-1      -112.50       3.172E-1      -72.92        0.23065       -55.69         
1546.5000     0.97571       30.00         9.539E-1      -140.77       3.257E-1      -102.68       0.19638       -48.20         
1547.2500     0.95298       31.92         6.348E-1      -139.21       2.989E-1      3.06          0.30604       -65.36         
1548.0000     0.9403        30.52         7.15E-1       -152.85       1.246E-1      139.09        0.30521       -46.00         
1548.7500     0.94743       30.61         7.191E-1      -126.97       1.929E-2      112.46        0.40608       -47.74         
1549.5000     0.95824       30.54         9.39E-1       -139.98       1.008E-1      -73.33        0.30767       -34.41         
1550.2500     0.95069       30.44         7.37E-1       -141.99       2.542E-2      -79.49        0.32593       -66.33         
1551.0000     0.95222       30.92         8.987E-1      -164.79       1.063E-1      22.63         0.34502       -57.49         
1551.7500     0.89906       30.83         5.849E-1      -140.21       8.235E-1      96.69         0.69693       -42.29         
1552.5000     0.90262       30.33         6.453E-1      -141.24       6.962E-1      105.06        0.53925       -38.98         
1553.2500     0.94657       31.07         7.223E-1      -131.05       2.13E-1       18.00         0.49331       -49.39         
1554.0000     0.96939       28.07         1.194E0       -130.54       3.213E-1      -141.80       0.29686       -35.13         
1554.7500     0.9757        30.07         7.834E-1      -156.94       3.354E-1      -51.17        0.30042       -57.60         
1555.5000     0.94877       30.05         6.303E-1      -142.15       4.929E-2      31.51         0.52024       -53.35         
1556.2500     0.94824       29.81         3.036E-1      -130.04       4.099E-2      68.02         0.48479       -51.78         
1557.0000     0.96798       30.30         3.811E-1      -140.45       5.273E-1      -42.54        0.52677       -45.35         
1557.7500     0.96268       28.57         9.615E-1      -135.28       2.191E-1      -130.39       0.44375       -39.46         
1558.5000     0.96453       30.03         7.011E-1      -132.99       2.326E-1      -47.92        0.44281       -61.64         
1559.2500     0.94683       30.58         7.59E-1       -149.86       2.377E-1      38.66         0.70543       -58.81         
1560.0000     0.97075       30.17         6.50E-1       -145.72       3.627E-1      -31.78        0.5754        -43.76         
1560.7500     0.90495       26.85         6.671E-1      -133.49       8.455E-1      140.67        0.74228       -38.13         
1561.5000     0.93795       28.21         6.585E-1      -129.50       2.963E-1      149.80        0.54204       -42.01         
1562.2500     0.94348       29.29         6.43E-1       -127.79       1.179E-1      72.65         0.56737       -48.88         
1563.0000     0.9293        27.64         6.519E-1      -135.37       4.444E-1      149.67        0.78753       -39.85         
1563.7500     0.94739       28.75         7.884E-1      -150.23       5.353E-2      155.31        0.68567       -38.75         
1564.5000     0.93943       27.94         7.78E-1       -140.93       2.267E-1      161.33        0.72033       -41.80         
1565.2500     0.93048       30.73         6.661E-1      -139.06       5.424E-1      52.10         0.81737       -52.90         
1566.0000     0.96528       29.28         3.519E-1      -170.81       4.756E-1      -2.41         0.77482       -33.42         
1566.7500     0.87247       24.87         1.206E0       -162.32       7.561E-1      164.90        0.93975       -28.31         
1567.5000     0.95014       28.09         5.681E-1      -130.21       9.968E-2      176.13        0.66302       -33.22         
1568.2500     0.94726       27.88         8.431E-1      -144.86       1.001E-1      174.65        0.83023       -32.36         
1569.0000     0.96616       28.10         8.035E-1      -134.18       1.73E-1       -88.15        0.93539       -23.58         
1569.7500     0.9395        28.72         9.467E-1      -150.74       1.518E-1      84.06         0.852         -40.90         
1570.5000     0.94118       28.18         7.854E-1      -129.97       1.311E-1      89.89         0.74982       -33.52         
1571.2500     0.95908       28.00         5.173E-1      -137.43       1.316E-1      -69.36        0.76013       -26.86         
1572.0000     0.95596       29.64         7.277E-1      -132.74       3.716E-1      7.03          0.94197       -48.76         
1572.7500     0.96295       27.86         8.764E-1      -147.14       1.216E-1      -55.71        0.5775        -23.41         
1573.5000     0.95381       28.30         8.521E-1      -140.11       1.14E-1       12.05         0.82626       -42.36         
1574.2500     0.96331       27.04         7.702E-1      -164.17       1.74E-1       -85.97        0.9597        -22.17         
1575.0000     0.96402       27.64         7.029E-1      -144.88       1.594E-1      -53.72        0.94319       -30.03         
1575.7500     0.93715       27.62         7.55E-1       -153.51       1.865E-1      111.00        0.90725       -37.87         
1576.5000     0.95228       27.47         7.979E-1      -158.29       3.235E-2      33.62         0.98483       -32.44         
1577.2500     0.95648       27.23         8.979E-1      -149.12       4.406E-2      -59.49        0.98532       -29.10         
1578.0000     0.93376       26.94         7.933E-1      -149.43       2.083E-1      129.89        1.20034       -38.63         
1578.7500     0.96073       27.38         4.50E-1       -142.95       2.125E-1      -33.24        0.97517       -19.84         
1579.5000     0.9366        26.57         8.498E-1      -147.38       1.801E-1      139.31        1.00946       -27.06         
1580.2500     0.93139       26.44         6.294E-1      -147.50       3.216E-1      135.80        0.90335       -25.52         
1581.0000     0.93817       26.34         9.684E-1      -151.26       1.501E-1      147.25        1.10779       -12.91         
1581.7500     0.97374       26.73         5.723E-1      -147.66       3.516E-1      -57.67        0.8496        -26.80         
1582.5000     0.98042       25.80         7.958E-1      -163.87       3.641E-1      -69.48        0.82749       -26.10         
1583.2500     0.95202       26.37         7.336E-1      -150.94       2.451E-2      -155.32       0.88312       -19.08         
1584.0000     0.93597       25.79         7.894E-1      -158.55       2.297E-1      159.32        1.0003        3.06           
1584.7500     0.95249       26.08         6.732E-1      -136.99       5.425E-2      -158.23       0.98172       -3.38          
1585.5000     0.93752       26.21         6.497E-1      -151.88       2.07E-1       122.24        1.19488       -17.34         
1586.2500     0.94808       25.62         8.779E-1      -152.16       1.007E-1      -173.96       0.88201       -1.72          
1587.0000     0.95427       26.10         6.484E-1      -149.39       3.062E-2      -24.89        0.90219       -20.25         
1587.7500     0.95306       26.11         6.68E-1       -154.91       4.13E-2       24.77         1.05545       -26.61         
1588.5000     0.95549       26.28         6.812E-1      -142.72       1.08E-1       0.85          1.10752       -16.52         
1589.2500     0.93338       25.72         7.332E-1      -149.16       2.426E-1      121.71        0.95815       -3.76          
1590.0000     0.95683       25.78         7.552E-1      -151.99       6.264E-2      -32.23        0.81637       -14.55         
1590.7500     0.95539       26.03         8.979E-1      -155.26       8.676E-2      17.53         0.7784        -9.48          
1591.5000     0.94128       25.34         6.83E-1       -154.58       1.56E-1       137.94        0.91114       -16.52         
1592.2500     0.95578       25.37         7.085E-1      -149.53       4.223E-2      -60.39        1.12475       -22.37         
1593.0000     0.95316       25.18         6.748E-1      -152.71       2.668E-2      -125.04       0.88138       -9.00          
1593.7500     0.95864       25.06         8.471E-1      -154.09       7.227E-2      -71.66        0.89221       -3.91          
1594.5000     0.95107       24.69         8.135E-1      -164.24       7.859E-2      -145.26       0.97759       -2.76          
1595.2500     0.98023       24.77         8.52E-1       -147.90       3.101E-1      -66.73        0.86027       -2.75          
1596.0000     0.95038       24.83         7.254E-1      -139.31       3.416E-2      145.77        0.91499       -1.44          
1596.7500     0.95399       24.88         6.635E-1      -156.67       2.509E-2      -6.48         0.98928       0.89           
1597.5000     0.95189       24.91         9.412E-1      -146.60       3.256E-2      43.01         1.0316        10.40          
1598.2500     0.95644       24.60         5.998E-1      -146.42       5.82E-2       -61.45        0.84978       -15.12         
1599.0000     0.95474       24.72         8.596E-1      -172.65       4.505E-2      27.16         0.83192       0.21           
1599.7500     0.94996       24.43         8.108E-1      -152.49       3.194E-2      120.86        0.88968       -1.11          
1600.5000     0.95523       24.39         6.624E-1      -143.31       3.838E-2      -41.03        0.8566        4.52           
1601.2500     0.95131       24.22         7.905E-1      -160.70       1.707E-2      144.40        0.87503       -5.52          
1602.0000     0.9528        24.05         6.885E-1      -157.99       1.959E-2      -136.16       0.96164       -1.86          
1602.7500     0.96835       24.27         6.378E-1      -159.42       2.348E-1      -31.24        0.75367       -5.25          
1603.5000     0.96173       24.02         7.694E-1      -155.23       1.076E-1      -39.90        0.84182       -2.26          
1604.2500     0.96976       24.12         8.06E-1       -156.05       1.996E-1      -33.63        0.90613       -0.72          
1605.0000     0.95983       23.76         6.376E-1      -161.95       9.782E-2      -40.53        0.99459       -7.28          
1605.7500     0.95788       23.76         8.508E-1      -151.87       5.888E-2      -30.14        0.73862       -8.85          
1606.5000     0.95319       23.51         8.484E-1      -151.38       9.456E-3      -126.82       0.76337       -7.91          
1607.2500     0.95336       23.42         8.437E-1      -155.26       8.507E-3      -115.89       0.92881       4.88           
1608.0000     0.95176       23.35         9.754E-1      -150.06       1.369E-2      136.16        0.82042       1.09           
1608.7500     0.95277       23.17         5.139E-1      -164.47       2.946E-2      -142.38       0.71614       -7.41          
1609.5000     0.94858       23.12         8.163E-1      -167.18       5.364E-2      155.05        1.07383       2.88           
1610.2500     0.95302       22.71         8.479E-1      -156.17       6.633E-2      -138.94       0.79526       3.31           
1611.0000     0.95059       22.94         7.291E-1      -159.08       3.446E-2      148.76        0.82615       -1.99          
1611.7500     0.95159       22.94         7.398E-1      -162.25       2.316E-2      112.86        0.72024       -5.01          
1612.5000     0.95411       22.80         7.411E-1      -155.96       1.074E-2      -34.98        0.72013       -4.90          
1613.2500     0.95392       22.86         7.89E-1       -157.40       3.471E-2      30.28         0.79565       -4.06          
1614.0000     0.95379       22.39         7.772E-1      -157.44       4.055E-2      -121.44       0.71988       -2.36          
1614.7500     0.95142       22.37         7.616E-1      -157.01       3.322E-2      -172.40       0.69404       -1.90          
1615.5000     0.95628       22.26         8.246E-1      -157.03       4.469E-2      -80.31        0.75129       -0.05          
