!    11/13/2024   11:24:38 AM 
! Ref Plane: 0.000 mm
# MHZ S MA R  50
!
1500.0000     0.94256       46.91         5.269E-1      -115.56       1.212E-2      -81.31        0.12449       -18.73         
1500.7500     0.94159       47.79         5.266E-1      -116.63       1.674E-2      -46.45        0.34071       10.33          
1501.5000     0.94137       47.84         5.238E-1      -116.21       6.395E-3      -70.72        0.37414       11.31          
1502.2500     0.942         47.47         5.159E-1      -114.83       6.701E-3      -129.51       0.29034       9.90           
1503.0000     0.94244       47.37         5.101E-1      -114.23       1.508E-2      -55.31        0.295         8.84           
1503.7500     0.94236       47.34         5.055E-1      -114.56       1.722E-2      -41.77        0.29739       8.60           
1504.5000     0.94225       47.19         5.018E-1      -116.44       8.932E-3      159.57        0.30215       7.86           
1505.2500     0.94212       47.04         5.079E-1      -118.31       2.588E-2      141.87        0.30723       6.55           
1506.0000     0.94225       46.97         5.229E-1      -119.37       1.692E-2      110.02        0.30884       3.14           
1506.7500     0.94276       46.89         5.334E-1      -119.33       5.836E-3      74.13         0.30508       2.94           
1507.5000     0.94382       46.77         5.322E-1      -118.62       1.747E-2      -126.77       0.30441       2.68           
1508.2500     0.9443        46.67         5.282E-1      -118.45       2.503E-2      -110.72       0.28667       3.80           
1509.0000     0.94422       46.61         5.257E-1      -119.16       1.92E-2       -59.37        0.29412       4.28           
1509.7500     0.94408       46.52         5.294E-1      -120.06       1.633E-2      -20.52        0.28386       1.91           
1510.5000     0.94415       46.39         5.341E-1      -120.52       1.733E-3      -13.10        0.27629       0.65           
1511.2500     0.94438       46.27         5.232E-1      -119.98       6.142E-3      160.90        0.27945       0.41           
1512.0000     0.94458       46.18         4.996E-1      -118.29       5.369E-3      104.54        0.28528       -0.32          
1512.7500     0.94463       46.09         4.923E-1      -116.68       1.128E-2      69.75         0.27665       1.74           
1513.5000     0.9447        45.99         5.036E-1      -116.31       1.54E-2       73.96         0.2685        0.68           
1514.2500     0.94495       45.89         5.224E-1      -118.59       1.499E-2      82.36         0.2841        -2.82          
1515.0000     0.94539       45.78         5.397E-1      -121.50       1.08E-2       87.96         0.28195       -4.14          
1515.7500     0.94589       45.69         5.397E-1      -122.65       9.696E-3      21.67         0.28572       -7.63          
1516.5000     0.94646       45.61         5.273E-1      -121.64       1.80E-2       -12.11        0.26833       -8.03          
1517.2500     0.947         45.49         5.152E-1      -119.33       1.818E-2      -42.33        0.27051       -9.75          
1518.0000     0.94739       45.36         5.091E-1      -117.68       1.552E-2      -93.75        0.25924       -8.98          
1518.7500     0.94722       45.22         5.026E-1      -119.11       1.549E-2      -160.50       0.25353       -9.23          
1519.5000     0.94723       45.10         5.033E-1      -121.87       2.151E-2      179.82        0.25936       -13.22         
1520.2500     0.94809       45.00         5.196E-1      -123.32       2.333E-2      -133.61       0.28225       -13.53         
1521.0000     0.94908       44.92         5.294E-1      -122.32       3.251E-2      -92.61        0.28213       -12.73         
1521.7500     0.94886       44.85         5.12E-1       -120.00       2.205E-2      -59.77        0.28451       -14.22         
1522.5000     0.94846       44.76         4.977E-1      -118.80       1.775E-2      0.81          0.28889       -17.00         
1523.2500     0.94858       44.66         5.108E-1      -120.80       1.803E-2      13.30         0.29067       -16.67         
1524.0000     0.94896       44.53         5.19E-1       -122.57       1.032E-2      -3.57         0.28445       -20.24         
1524.7500     0.94924       44.40         4.92E-1       -122.42       3.848E-3      -66.57        0.29058       -21.78         
1525.5000     0.94947       44.29         4.694E-1      -122.31       4.80E-3       -89.78        0.28675       -25.91         
1526.2500     0.94972       44.20         4.788E-1      -123.92       7.93E-3       -30.35        0.30948       -28.26         
1527.0000     0.95002       44.09         5.012E-1      -124.99       9.063E-3      -36.17        0.30575       -28.72         
1527.7500     0.9503        43.96         5.112E-1      -124.55       9.899E-3      -115.68       0.31094       -29.92         
1528.5000     0.95059       43.84         5.088E-1      -122.69       1.618E-2      -133.68       0.29511       -30.63         
1529.2500     0.95081       43.74         4.94E-1       -120.37       1.262E-2      -122.64       0.29447       -30.98         
1530.0000     0.95089       43.65         4.853E-1      -120.32       6.751E-3      -114.66       0.30721       -32.65         
1530.7500     0.95083       43.54         4.886E-1      -122.86       4.094E-3      -179.22       0.32224       -35.51         
1531.5000     0.95117       43.44         5.00E-1       -124.52       2.551E-3      -94.92        0.31898       -37.49         
1532.2500     0.95185       43.35         5.067E-1      -124.17       1.368E-2      -61.56        0.31772       -36.27         
1533.0000     0.95211       43.24         4.971E-1      -124.23       1.44E-2       -73.28        0.31763       -37.90         
1533.7500     0.95195       43.12         4.804E-1      -124.77       8.674E-3      -118.92       0.2973        -39.00         
1534.5000     0.95209       43.02         4.747E-1      -124.28       6.299E-3      -105.20       0.30608       -36.69         
1535.2500     0.95248       42.94         4.801E-1      -123.24       1.055E-2      -52.12        0.33537       -37.93         
1536.0000     0.95225       42.83         4.868E-1      -123.11       1.033E-3      -122.91       0.35363       -38.34         
1536.7500     0.95201       42.71         4.881E-1      -124.04       1.253E-2      149.21        0.34865       -42.96         
1537.5000     0.95275       42.63         4.845E-1      -126.02       5.76E-3       -33.91        0.34657       -41.71         
1538.2500     0.95383       42.56         4.779E-1      -127.39       3.172E-2      -31.94        0.36775       -42.24         
1539.0000     0.95364       42.45         4.788E-1      -126.13       2.221E-2      -33.81        0.36263       -42.11         
1539.7500     0.95294       42.31         4.802E-1      -124.75       2.519E-3      168.01        0.37712       -43.56         
1540.5000     0.95291       42.21         4.783E-1      -126.76       6.392E-3      139.23        0.37633       -46.98         
1541.2500     0.95326       42.13         4.779E-1      -129.12       4.242E-3      37.25         0.38875       -46.65         
1542.0000     0.95303       42.02         4.852E-1      -127.51       7.52E-3       113.17        0.38834       -47.35         
1542.7500     0.95275       41.90         4.936E-1      -125.55       1.792E-2      140.01        0.39564       -47.80         
1543.5000     0.95282       41.79         5.016E-1      -126.74       2.039E-2      154.92        0.38986       -49.44         
1544.2500     0.95299       41.69         4.989E-1      -128.51       2.175E-2      167.50        0.40455       -48.11         
1545.0000     0.95292       41.58         4.787E-1      -127.78       2.683E-2      166.32        0.40839       -47.38         
1545.7500     0.95318       41.48         4.578E-1      -125.77       2.594E-2      172.05        0.42145       -47.22         
1546.5000     0.95382       41.40         4.50E-1       -124.66       1.822E-2      -159.83       0.44094       -50.38         
1547.2500     0.95418       41.32         4.492E-1      -125.95       1.195E-2      -126.69       0.44311       -52.07         
1548.0000     0.954         41.25         4.536E-1      -129.16       2.49E-3       169.41        0.42523       -53.43         
1548.7500     0.95419       41.19         4.606E-1      -129.90       1.007E-2      35.24         0.41811       -53.86         
1549.5000     0.95489       41.12         4.687E-1      -126.78       2.355E-2      -0.04         0.42871       -51.51         
1550.2500     0.95474       40.99         4.811E-1      -125.71       8.002E-3      -7.53         0.4661        -51.07         
1551.0000     0.95349       40.79         4.955E-1      -128.20       4.042E-2      177.47        0.48989       -48.54         
1551.7500     0.95369       40.64         4.874E-1      -129.66       5.625E-2      -169.26       0.50283       -47.68         
1552.5000     0.95552       40.62         4.549E-1      -128.42       3.242E-2      -123.22       0.51599       -49.43         
1553.2500     0.956         40.60         4.409E-1      -127.57       2.114E-2      -68.62        0.50344       -51.06         
1554.0000     0.95502       40.53         4.528E-1      -128.85       6.84E-3       68.29         0.51902       -49.77         
1554.7500     0.95466       40.43         4.635E-1      -131.72       1.563E-2      118.93        0.52133       -50.18         
1555.5000     0.95532       40.31         4.593E-1      -134.23       9.22E-3       -179.17       0.53947       -51.37         
1556.2500     0.95544       40.22         4.404E-1      -133.78       1.147E-2      178.03        0.5524        -50.97         
1557.0000     0.95518       40.16         4.234E-1      -130.16       1.761E-2      125.27        0.5742        -50.76         
1557.7500     0.9556        40.11         4.302E-1      -127.11       2.079E-2      67.94         0.57805       -48.77         
1558.5000     0.95657       40.04         4.491E-1      -126.02       2.587E-2      21.85         0.6114        -49.00         
1559.2500     0.95683       39.89         4.66E-1       -127.51       6.112E-3      -30.04        0.62359       -48.49         
1560.0000     0.95655       39.71         4.784E-1      -129.48       2.641E-2      -152.82       0.62133       -52.02         
1560.7500     0.9566        39.65         4.816E-1      -129.94       1.706E-2      -165.33       0.62441       -51.06         
1561.5000     0.95716       39.63         4.762E-1      -130.00       8.46E-3       29.70         0.63187       -49.98         
1562.2500     0.95806       39.52         4.678E-1      -131.98       1.484E-2      -40.38        0.62878       -49.11         
1563.0000     0.95875       39.40         4.565E-1      -134.00       2.551E-2      -62.66        0.6445        -47.75         
1563.7500     0.95868       39.38         4.395E-1      -133.00       2.857E-2      -6.29         0.67934       -48.71         
1564.5000     0.95809       39.36         4.311E-1      -131.70       4.469E-2      32.00         0.70468       -48.63         
1565.2500     0.9576        39.21         4.392E-1      -132.22       2.521E-2      60.13         0.7299        -48.42         
1566.0000     0.95767       39.03         4.486E-1      -132.89       1.246E-2      139.98        0.70624       -48.71         
1566.7500     0.95814       38.96         4.388E-1      -131.99       8.518E-3      97.32         0.73426       -49.73         
1567.5000     0.95865       38.88         4.333E-1      -132.57       1.281E-2      43.23         0.74889       -49.47         
1568.2500     0.95896       38.74         4.485E-1      -135.52       2.729E-3      -91.49        0.79669       -48.75         
1569.0000     0.95907       38.60         4.653E-1      -136.26       1.341E-2      -135.76       0.79841       -47.35         
1569.7500     0.95881       38.52         4.576E-1      -133.16       1.05E-2       176.03        0.77029       -49.08         
1570.5000     0.95888       38.44         4.401E-1      -131.38       1.073E-2      150.74        0.78365       -49.29         
1571.2500     0.95943       38.32         4.282E-1      -133.05       1.231E-2      -155.07       0.81804       -48.97         
1572.0000     0.96009       38.20         4.251E-1      -134.56       1.71E-2       -115.59       0.86091       -47.48         
1572.7500     0.96044       38.13         4.275E-1      -134.16       1.283E-2      -82.66        0.88277       -47.37         
1573.5000     0.96013       38.08         4.297E-1      -134.30       6.566E-3      24.29         0.87613       -46.15         
1574.2500     0.95965       38.01         4.281E-1      -135.11       1.768E-2      74.40         0.94055       -47.13         
1575.0000     0.96033       37.93         4.28E-1       -134.86       1.767E-2      41.31         0.93899       -47.06         
1575.7500     0.9615        37.82         4.216E-1      -132.92       2.38E-2       -15.04        0.98309       -48.84         
1576.5000     0.96117       37.70         4.183E-1      -132.75       1.132E-2      -32.37        0.97312       -45.14         
1577.2500     0.95988       37.54         4.151E-1      -133.61       2.254E-2      175.87        0.96422       -44.96         
1578.0000     0.96039       37.42         4.055E-1      -134.81       2.668E-2      -158.25       0.98806       -42.68         
1578.7500     0.96209       37.35         3.989E-1      -135.61       2.902E-2      -90.33        0.98626       -42.14         
1579.5000     0.96252       37.28         4.098E-1      -136.25       2.82E-2       -68.60        1.02392       -43.62         
1580.2500     0.96165       37.22         4.325E-1      -136.46       7.36E-3       -42.67        1.0299        -44.07         
1581.0000     0.96081       37.17         4.404E-1      -135.75       1.478E-2      78.69         1.03555       -43.68         
1581.7500     0.96066       37.09         4.308E-1      -135.29       2.098E-2      81.02         1.03265       -41.95         
1582.5000     0.96126       36.96         4.142E-1      -135.80       6.453E-3      80.18         1.06048       -41.61         
1583.2500     0.96189       36.82         4.047E-1      -135.94       1.156E-2      -109.18       1.091         -42.63         
1584.0000     0.96185       36.74         4.194E-1      -133.71       6.747E-3      -114.82       1.04965       -42.61         
1584.7500     0.96159       36.68         4.349E-1      -131.01       5.078E-3      84.25         1.03058       -44.83         
1585.5000     0.9622        36.59         4.312E-1      -131.22       4.84E-3       -56.27        1.04692       -42.36         
1586.2500     0.96275       36.46         4.159E-1      -133.37       1.717E-2      -91.01        1.09          -40.75         
1587.0000     0.96254       36.38         4.051E-1      -136.30       1.321E-2      -104.99       1.08574       -39.72         
1587.7500     0.96221       36.31         4.051E-1      -138.53       3.464E-3      -133.32       1.07319       -40.85         
1588.5000     0.9622        36.24         4.181E-1      -139.17       8.561E-4      49.12         1.04657       -41.19         
1589.2500     0.96236       36.14         4.194E-1      -138.83       2.30E-3       -89.95        1.08334       -41.51         
1590.0000     0.96259       36.03         4.014E-1      -138.60       8.417E-3      -105.01       1.1229        -41.39         
1590.7500     0.9626        35.93         3.902E-1      -138.53       9.083E-3      -118.66       1.1543        -40.99         
1591.5000     0.9624        35.85         4.011E-1      -139.16       5.28E-3       -155.53       1.17978       -37.00         
1592.2500     0.9624        35.76         4.152E-1      -139.09       5.903E-3      -171.43       1.14171       -36.77         
1593.0000     0.96288       35.65         4.10E-1       -139.28       1.138E-2      -115.77       1.16524       -36.41         
1593.7500     0.9632        35.53         4.03E-1       -139.45       1.926E-2      -110.57       1.16958       -39.28         
1594.5000     0.96309       35.44         4.011E-1      -140.16       1.634E-2      -119.46       1.1812        -39.40         
1595.2500     0.96294       35.36         3.973E-1      -139.99       1.285E-2      -129.21       1.16384       -39.31         
1596.0000     0.96296       35.29         3.947E-1      -138.89       8.011E-3      -127.74       1.13603       -39.44         
1596.7500     0.96284       35.22         4.074E-1      -138.18       2.006E-3      91.33         1.14275       -38.53         
1597.5000     0.96257       35.16         4.292E-1      -137.94       1.267E-2      79.36         1.15482       -39.63         
1598.2500     0.96255       35.04         4.211E-1      -137.68       9.785E-3      130.17        1.17564       -39.90         
1599.0000     0.96294       34.88         3.923E-1      -137.92       2.065E-2      -154.30       1.18415       -38.50         
1599.7500     0.96336       34.81         3.914E-1      -139.24       1.556E-2      -137.05       1.15067       -35.44         
1600.5000     0.96352       34.78         4.107E-1      -141.10       4.876E-3      30.90         1.15114       -32.70         
1601.2500     0.96329       34.71         4.119E-1      -141.52       1.102E-2      68.40         1.16165       -34.36         
1602.0000     0.96314       34.58         3.972E-1      -140.64       9.459E-3      138.55        1.21577       -38.32         
1602.7500     0.96345       34.47         4.026E-1      -140.02       8.274E-3      -177.81       1.21603       -38.58         
1603.5000     0.96409       34.39         4.192E-1      -140.23       6.514E-3      -98.80        1.17145       -37.23         
1604.2500     0.96433       34.28         4.145E-1      -141.65       1.157E-2      -108.00       1.16331       -36.94         
1605.0000     0.96432       34.17         3.994E-1      -142.90       1.449E-2      -124.11       1.16875       -38.67         
1605.7500     0.96435       34.11         4.015E-1      -142.87       5.436E-3      -124.91       1.15981       -37.90         
1606.5000     0.96416       34.06         4.034E-1      -143.20       7.747E-3      68.51         1.15959       -36.12         
1607.2500     0.96384       34.00         3.841E-1      -146.45       1.865E-2      79.97         1.12935       -33.20         
1608.0000     0.96378       33.90         3.667E-1      -149.69       2.075E-2      93.50         1.17395       -30.03         
1608.7500     0.96389       33.77         3.814E-1      -147.55       1.432E-2      126.21        1.21092       -32.87         
1609.5000     0.96431       33.62         4.009E-1      -144.76       1.579E-2      -165.71       1.20694       -35.16         
1610.2500     0.96476       33.50         3.924E-1      -145.00       2.311E-2      -138.47       1.18294       -35.97         
1611.0000     0.96517       33.43         3.812E-1      -145.98       1.915E-2      -119.24       1.16665       -35.00         
1611.7500     0.96536       33.39         3.927E-1      -145.09       6.322E-3      -66.73        1.14609       -34.09         
1612.5000     0.96525       33.33         4.035E-1      -144.31       8.106E-3      22.62         1.15749       -33.26         
1613.2500     0.96516       33.23         3.991E-1      -144.89       4.757E-3      39.78         1.16368       -33.83         
1614.0000     0.96503       33.13         4.023E-1      -146.34       3.102E-3      119.17        1.16518       -35.31         
1614.7500     0.96486       33.05         4.193E-1      -148.15       9.27E-3       106.17        1.15075       -34.99         
1615.5000     0.96454       32.97         4.219E-1      -148.76       1.589E-2      112.02        1.13777       -33.60         
